
T3100 000:069 SEGGER J-Link V6.00e Log File (0001ms, 0015ms total)
T3100 000:069 DLL Compiled: Aug  4 2016 09:37:38 (0001ms, 0015ms total)
T3100 000:069 Logging started @ 2021-04-13 10:15 (0001ms, 0015ms total)
T3100 000:070 JLINK_SetWarnOutHandler(...) (0000ms, 0015ms total)
T3100 000:070 JLINK_OpenEx(...)
Firmware: J-Link ARM-OB STM32 compiled Aug 22 2012 19:52:04
Hardware: V7.00
S/N: 20090928
Feature(s): RDI,FlashDL,FlashBP,JFlash,GDBFull  returns O.K. (0011ms, 0026ms total)
T3100 000:081 JLINK_SetErrorOutHandler(...) (0000ms, 0026ms total)
T3100 000:081 JLINK_ExecCommand("ProjectFile = "G:\1\EX01\JLinkSettings.ini"", ...).   returns 0x00 (0178ms, 0204ms total)
T3100 000:262 JLINK_ExecCommand("Device = LPC1768", ...). Device "LPC1768" selected.  returns 0x00 (0004ms, 0208ms total)
T3100 000:266 JLINK_ExecCommand("DisableConnectionTimeout", ...).   returns 0x01 (0000ms, 0208ms total)
T3100 000:266 JLINK_GetHardwareVersion()  returns 0x11170 (0000ms, 0208ms total)
T3100 000:266 JLINK_GetDLLVersion()  returns 60005 (0000ms, 0208ms total)
T3100 000:266 JLINK_GetFirmwareString(...) (0000ms, 0208ms total)
T3100 000:272 JLINK_GetDLLVersion()  returns 60005 (0000ms, 0208ms total)
T3100 000:272 JLINK_GetCompileDateTime() (0000ms, 0208ms total)
T3100 000:274 JLINK_GetFirmwareString(...) (0000ms, 0208ms total)
T3100 000:276 JLINK_GetHardwareVersion()  returns 0x11170 (0000ms, 0208ms total)
T3100 000:285 JLINK_TIF_Select(JLINKARM_TIF_JTAG)  returns 0x00 (0002ms, 0210ms total)
T3100 000:287 JLINK_SetSpeed(5000) (0000ms, 0210ms total)
T3100 000:287 JLINK_GetIdData(...) >0x2F8 JTAG>TotalIRLen = 4, IRPrint = 0x01 >0x30 JTAG> >0x410 JTAG> >0x70 JTAG> >0x48 JTAG> >0x40 JTAG> >0x48 JTAG>AP-IDR: 0x24770011, Type: AHB-AP >0x78 JTAG> >0x40 JTAG> >0x30 JTAG> >0x40 JTAG> >0x40 JTAG> >0x30 JTAG> >0x40 JTAG> >0x48 JTAG>Found Cortex-M3 r2p0, Little endian. >0x1D8 JTAG> >0x1D8 JTAG>FPUnit: 6 code (BP) slots and 2 literal slots >0x1D8 JTAG> >0x1D8 JTAG> >0x1D0 JTAG> >0x1D8 JTAG> >0x1D0 JTAG> >0x1D8 JTAG> >0x1D0 JTAG>CoreSight components:
ROMTbl 0 @ E00FF000 >0x288 JTAG> >0x288 JTAG> >0x288 JTAG>ROMTbl 0 [0]: FFF0F000, CID: B105E00D, PID: 002BB000 SCS >0x288 JTAG> >0x288 JTAG>ROMTbl 0 [1]: FFF02000, CID: B105E00D, PID: 002BB002 DWT >0x288 JTAG> >0x288 JTAG>ROMTbl 0 [2]: FFF03000, CID: B105E00D, PID: 002BB003 FPB >0x288 JTAG> >0x288 JTAG>ROMTbl 0 [3]: FFF01000, CID: B105E00D, PID: 002BB001 ITM >0x288 JTAG> >0x288 JTAG> >0x288 JTAG>ROMTbl 0 [4]: FFF41000, CID: B105900D, PID: 002BB923 TPIU-Lite >0x288 JTAG> >0x288 JTAG>
ROMTbl 0 [5]: FFF42000, CID: B105900D, PID: 002BB924 ETM-M3 ScanLen=4 NumDevices=1 aId[0]=0x4BA00477 aIrRead[0]=0 aScanLen[0]=0 aScanRead[0]=0 (0065ms, 0275ms total)
T3100 000:353 JLINK_JTAG_GetDeviceID(DeviceIndex = 0)  returns 0x4BA00477 (0000ms, 0275ms total)
T3100 000:353 JLINK_JTAG_GetDeviceInfo(DeviceIndex = 0)  returns 0x00 (0000ms, 0275ms total)
T3100 000:353 JLINK_GetDLLVersion()  returns 60005 (0000ms, 0275ms total)
T3100 000:353 JLINK_CORE_GetFound()  returns 0x30000FF (0000ms, 0275ms total)
T3100 000:353 JLINK_GetDebugInfo(0x100) -- Value=0xE00FF003  returns 0x00 (0000ms, 0275ms total)
T3100 000:355 JLINK_GetDebugInfo(0x100) -- Value=0xE00FF003  returns 0x00 (0000ms, 0275ms total)
T3100 000:355 JLINK_GetDebugInfo(0x101) -- Value=0xE0041000  returns 0x00 (0000ms, 0275ms total)
T3100 000:355 JLINK_GetDebugInfo(0x102) -- Value=0x00000000  returns 0x00 (0000ms, 0275ms total)
T3100 000:355 JLINK_GetDebugInfo(0x103) -- Value=0xE0040000  returns 0x00 (0000ms, 0275ms total)
T3100 000:355 JLINK_GetDebugInfo(0x104) -- Value=0xE0000000  returns 0x00 (0000ms, 0275ms total)
T3100 000:355 JLINK_GetDebugInfo(0x105) -- Value=0xE0001000  returns 0x00 (0000ms, 0275ms total)
T3100 000:355 JLINK_GetDebugInfo(0x106) -- Value=0xE0002000  returns 0x00 (0000ms, 0275ms total)
T3100 000:355 JLINK_GetDebugInfo(0x107) -- Value=0xE000E000  returns 0x00 (0000ms, 0275ms total)
T3100 000:355 JLINK_GetDebugInfo(0x10C) -- Value=0xE000EDF0  returns 0x00 (0000ms, 0275ms total)
T3100 000:355 JLINK_ReadMemU32(0xE000ED00, 0x0001 Items, ...) -- CPU is running >0x1D8 JTAG> - Data: 30 C2 2F 41  returns 0x01 (0002ms, 0277ms total)
T3100 000:357 JLINK_SetResetType(JLINKARM_RESET_TYPE_NORMAL)  returns ??? (0000ms, 0277ms total)
T3100 000:357 JLINK_Reset() -- CPU is running >0x1D0 JTAG> -- CPU is running >0x1D0 JTAG> -- CPU is running >0x208 JTAG> -- CPU is running >0x1D8 JTAG> -- CPU is running >0x1D8 JTAG> -- CPU is running >0x1D0 JTAG> -- CPU is running >0x1D0 JTAG> -- CPU is running >0x1D8 JTAG> >0x170 JTAG> >0x1598 JTAG> >0x40 JTAG> >0x40 JTAG> >0x30 JTAG> >0x40 JTAG> >0x48 JTAG> >0x40 JTAG> >0x1D0 JTAG> >0x1D0 JTAG> >0x1D0 JTAG> >0x1D0 JTAG> >0x1D0 JTAG> >0x1D0 JTAG> >0x1D0 JTAG> >0x1D0 JTAG> >0x1D0 JTAG> >0x1D0 JTAG>
 >0x1D0 JTAG> >0x1D0 JTAG> >0x1D0 JTAG> >0x1D0 JTAG> >0x1D0 JTAG> >0x1D0 JTAG> >0x1D0 JTAG> >0x1D0 JTAG> >0x1D0 JTAG> >0x1D0 JTAG> >0x1D0 JTAG> >0x1D8 JTAG> >0x218 JTAG> >0x218 JTAG> >0x170 JTAG> >0x1598 JTAG> >0x1D0 JTAG> >0x1D0 JTAG> >0x1D8 JTAG> >0x1D8 JTAG> >0x1D8 JTAG> >0x1D8 JTAG> >0x1D8 JTAG> >0x1D8 JTAG> >0x1D8 JTAG> >0x1D8 JTAG> >0x1D0 JTAG> >0x1D0 JTAG> >0x1D0 JTAG> >0x1D0 JTAG> >0x1D0 JTAG> >0x1D0 JTAG> >0x1D0 JTAG> >0x1D8 JTAG> >0x218 JTAG> >0x218 JTAG> >0x170 JTAG> >0x1598 JTAG> >0x1D8 JTAG>
 >0x1D0 JTAG> >0x1D0 JTAG> >0x1D0 JTAG> >0x1D0 JTAG> >0x1D0 JTAG> >0x1D0 JTAG> >0x1D0 JTAG> >0x1D0 JTAG> >0x1D8 JTAG> >0x1D8 JTAG> >0x06 JTAG> (0326ms, 0603ms total)
T3100 000:683 JLINK_Halt()  returns 0x00 (0000ms, 0603ms total)
T3100 000:683 JLINK_IsHalted()  returns TRUE (0000ms, 0603ms total)
T3100 000:683 JLINK_ReadMemU32(0xE000EDF0, 0x0001 Items, ...) >0x1D8 JTAG> - Data: 03 00 03 00  returns 0x01 (0002ms, 0605ms total)
T3100 000:685 JLINK_WriteU32(0xE000EDF0, 0xA05F0003) >0x1D0 JTAG>  returns 0x00 (0002ms, 0607ms total)
T3100 000:687 JLINK_WriteU32(0xE000EDFC, 0x01000000) >0x1D0 JTAG>  returns 0x00 (0001ms, 0608ms total)
T3100 000:710 JLINK_GetHWStatus(...)  returns 0x00 (0000ms, 0608ms total)
T3100 000:716 JLINK_GetNumBPUnits(Type = 0xFFFFFF00)  returns 0x06 (0000ms, 0608ms total)
T3100 000:716 JLINK_GetNumBPUnits(Type = 0xF0)  returns 0x2000 (0000ms, 0608ms total)
T3100 000:716 JLINK_GetNumWPUnits()  returns 0x04 (0000ms, 0608ms total)
T3100 000:722 JLINK_GetSpeed()  returns 0xFA0 (0000ms, 0608ms total)
T3100 000:725 JLINK_ReadMemU32(0xE000E004, 0x0001 Items, ...) >0x1D8 JTAG> - Data: 01 00 00 00  returns 0x01 (0001ms, 0609ms total)
T3100 000:726 JLINK_ReadMemU32(0xE000E004, 0x0001 Items, ...) >0x1D8 JTAG> - Data: 01 00 00 00  returns 0x01 (0001ms, 0610ms total)
T3100 000:727 JLINK_WriteMem(0xE0001000, 0x001C Bytes, ...) - Data: 01 00 00 00 00 00 00 00 00 00 00 00 00 00 00 00 ... >0x2F0 JTAG>  returns 0x1C (0002ms, 0612ms total)
T3100 000:729 JLINK_ReadMem (0xE0001000, 0x001C Bytes, ...) >0x338 JTAG> - Data: 01 00 00 40 00 00 00 00 00 00 00 00 00 00 00 00 ...  returns 0x00 (0003ms, 0615ms total)
T3100 000:732 JLINK_Halt()  returns 0x00 (0000ms, 0615ms total)
T3100 000:732 JLINK_IsHalted() >0x1D8 JTAG>  returns TRUE (0001ms, 0616ms total)
T3100 000:737 JLINK_WriteMem(0x10000000, 0x01E4 Bytes, ...) - Data: 00 BE 0A E0 0D 78 2D 06 68 40 08 24 40 00 00 D3 ... >0x17D8 JTAG>  returns 0x1E4 (0011ms, 0626ms total)
T3100 000:748 JLINK_WriteReg(R0, 0x00000000)  returns 0x00 (0000ms, 0626ms total)
T3100 000:748 JLINK_WriteReg(R1, 0x00B71B00)  returns 0x00 (0000ms, 0626ms total)
T3100 000:748 JLINK_WriteReg(R2, 0x00000001)  returns 0x00 (0000ms, 0626ms total)
T3100 000:748 JLINK_WriteReg(R3, 0x00000000)  returns 0x00 (0000ms, 0626ms total)
T3100 000:748 JLINK_WriteReg(R4, 0x00000000)  returns 0x00 (0000ms, 0626ms total)
T3100 000:748 JLINK_WriteReg(R5, 0x00000000)  returns 0x00 (0000ms, 0626ms total)
T3100 000:748 JLINK_WriteReg(R6, 0x00000000)  returns 0x00 (0000ms, 0626ms total)
T3100 000:748 JLINK_WriteReg(R7, 0x00000000)  returns 0x00 (0000ms, 0626ms total)
T3100 000:748 JLINK_WriteReg(R8, 0x00000000)  returns 0x00 (0000ms, 0626ms total)
T3100 000:748 JLINK_WriteReg(R9, 0x100001DC)  returns 0x00 (0000ms, 0626ms total)
T3100 000:748 JLINK_WriteReg(R10, 0x00000000)  returns 0x00 (0000ms, 0626ms total)
T3100 000:748 JLINK_WriteReg(R11, 0x00000000)  returns 0x00 (0000ms, 0626ms total)
T3100 000:748 JLINK_WriteReg(R12, 0x00000000)  returns 0x00 (0000ms, 0626ms total)
T3100 000:748 JLINK_WriteReg(R13 (SP), 0x10000FE0)  returns 0x00 (0000ms, 0626ms total)
T3100 000:748 JLINK_WriteReg(R14, 0x10000001)  returns 0x00 (0000ms, 0626ms total)
T3100 000:748 JLINK_WriteReg(R15 (PC), 0x10000044)  returns 0x00 (0000ms, 0626ms total)
T3100 000:748 JLINK_WriteReg(XPSR, 0x01000000)  returns 0x00 (0000ms, 0626ms total)
T3100 000:748 JLINK_WriteReg(MSP, 0x10000FE0)  returns 0x00 (0000ms, 0626ms total)
T3100 000:748 JLINK_WriteReg(PSP, 0x10000FE0)  returns 0x00 (0000ms, 0626ms total)
T3100 000:748 JLINK_WriteReg(CFBP, 0x00000000)  returns 0x00 (0000ms, 0626ms total)
T3100 000:748 JLINK_SetBPEx(Addr = 0x10000000, Type = 0xFFFFFFF2)  returns 0x00000001 (0001ms, 0627ms total)
T3100 000:749 JLINK_Go() >0x1D8 JTAG> >0x1D0 JTAG> >0x1D0 JTAG> >0x1D0 JTAG> >0x1D0 JTAG> >0x1D0 JTAG> >0x1D0 JTAG> >0x2C8 JTAG> >0x1E8 JTAG> >0x1E8 JTAG> >0x1E8 JTAG> >0x1E8 JTAG> >0x1E8 JTAG> >0x1E8 JTAG> >0x1E8 JTAG> >0x1E8 JTAG> >0x1E8 JTAG> >0x218 JTAG> >0x218 JTAG> (0024ms, 0651ms total)
T3100 000:774 JLINK_IsHalted() >0x170 JTAG> >0x1598 JTAG>  returns TRUE (0011ms, 0662ms total)
T3100 000:785 JLINK_ReadReg(R15 (PC))  returns 0x10000000 (0000ms, 0651ms total)
T3100 000:785 JLINK_ClrBPEx(BPHandle = 0x00000001)  returns 0x00 (0000ms, 0651ms total)
T3100 000:785 JLINK_ReadReg(R0)  returns 0x00000000 (0000ms, 0651ms total)
T3100 000:786 JLINK_WriteReg(R0, 0x00000000)  returns 0x00 (0000ms, 0651ms total)
T3100 000:786 JLINK_WriteReg(R1, 0x00001000)  returns 0x00 (0000ms, 0651ms total)
T3100 000:786 JLINK_WriteReg(R2, 0x000000FF)  returns 0x00 (0000ms, 0651ms total)
T3100 000:786 JLINK_WriteReg(R3, 0x00000000)  returns 0x00 (0000ms, 0651ms total)
T3100 000:786 JLINK_WriteReg(R4, 0x00000000)  returns 0x00 (0000ms, 0651ms total)
T3100 000:786 JLINK_WriteReg(R5, 0x00000000)  returns 0x00 (0000ms, 0651ms total)
T3100 000:786 JLINK_WriteReg(R6, 0x00000000)  returns 0x00 (0000ms, 0651ms total)
T3100 000:786 JLINK_WriteReg(R7, 0x00000000)  returns 0x00 (0000ms, 0651ms total)
T3100 000:786 JLINK_WriteReg(R8, 0x00000000)  returns 0x00 (0000ms, 0651ms total)
T3100 000:786 JLINK_WriteReg(R9, 0x100001DC)  returns 0x00 (0000ms, 0651ms total)
T3100 000:786 JLINK_WriteReg(R10, 0x00000000)  returns 0x00 (0000ms, 0651ms total)
T3100 000:786 JLINK_WriteReg(R11, 0x00000000)  returns 0x00 (0000ms, 0651ms total)
T3100 000:786 JLINK_WriteReg(R12, 0x00000000)  returns 0x00 (0000ms, 0651ms total)
T3100 000:786 JLINK_WriteReg(R13 (SP), 0x10000FE0)  returns 0x00 (0000ms, 0651ms total)
T3100 000:786 JLINK_WriteReg(R14, 0x10000001)  returns 0x00 (0000ms, 0651ms total)
T3100 000:786 JLINK_WriteReg(R15 (PC), 0x10000020)  returns 0x00 (0000ms, 0651ms total)
T3100 000:786 JLINK_WriteReg(XPSR, 0x01000000)  returns 0x00 (0000ms, 0651ms total)
T3100 000:786 JLINK_WriteReg(MSP, 0x10000FE0)  returns 0x00 (0000ms, 0651ms total)
T3100 000:786 JLINK_WriteReg(PSP, 0x10000FE0)  returns 0x00 (0001ms, 0652ms total)
T3100 000:787 JLINK_WriteReg(CFBP, 0x00000000)  returns 0x00 (0000ms, 0652ms total)
T3100 000:787 JLINK_SetBPEx(Addr = 0x10000000, Type = 0xFFFFFFF2)  returns 0x00000002 (0000ms, 0652ms total)
T3100 000:787 JLINK_Go() >0x1D8 JTAG> >0x2C8 JTAG> >0x1E8 JTAG> >0x1E8 JTAG> >0x1E8 JTAG> >0x1E8 JTAG> >0x1E8 JTAG> >0x218 JTAG> >0x218 JTAG> (0010ms, 0662ms total)
T3100 000:797 JLINK_IsHalted() >0x170 JTAG> >0x1598 JTAG>  returns TRUE (0012ms, 0674ms total)
T3100 000:809 JLINK_ReadReg(R15 (PC))  returns 0x10000000 (0000ms, 0662ms total)
T3100 000:809 JLINK_ClrBPEx(BPHandle = 0x00000002)  returns 0x00 (0000ms, 0662ms total)
T3100 000:809 JLINK_ReadReg(R0)  returns 0x00000001 (0000ms, 0662ms total)
T3100 000:809 JLINK_WriteReg(R0, 0x00000000)  returns 0x00 (0000ms, 0662ms total)
T3100 000:809 JLINK_WriteReg(R1, 0x00001000)  returns 0x00 (0000ms, 0662ms total)
T3100 000:809 JLINK_WriteReg(R2, 0x000000FF)  returns 0x00 (0000ms, 0662ms total)
T3100 000:809 JLINK_WriteReg(R3, 0x00000000)  returns 0x00 (0000ms, 0662ms total)
T3100 000:809 JLINK_WriteReg(R4, 0x00000000)  returns 0x00 (0000ms, 0662ms total)
T3100 000:809 JLINK_WriteReg(R5, 0x00000000)  returns 0x00 (0000ms, 0662ms total)
T3100 000:809 JLINK_WriteReg(R6, 0x00000000)  returns 0x00 (0000ms, 0662ms total)
T3100 000:809 JLINK_WriteReg(R7, 0x00000000)  returns 0x00 (0000ms, 0662ms total)
T3100 000:809 JLINK_WriteReg(R8, 0x00000000)  returns 0x00 (0000ms, 0662ms total)
T3100 000:809 JLINK_WriteReg(R9, 0x100001DC)  returns 0x00 (0000ms, 0662ms total)
T3100 000:809 JLINK_WriteReg(R10, 0x00000000)  returns 0x00 (0000ms, 0662ms total)
T3100 000:809 JLINK_WriteReg(R11, 0x00000000)  returns 0x00 (0000ms, 0662ms total)
T3100 000:809 JLINK_WriteReg(R12, 0x00000000)  returns 0x00 (0000ms, 0662ms total)
T3100 000:809 JLINK_WriteReg(R13 (SP), 0x10000FE0)  returns 0x00 (0000ms, 0662ms total)
T3100 000:809 JLINK_WriteReg(R14, 0x10000001)  returns 0x00 (0000ms, 0662ms total)
T3100 000:809 JLINK_WriteReg(R15 (PC), 0x10000110)  returns 0x00 (0000ms, 0662ms total)
T3100 000:809 JLINK_WriteReg(XPSR, 0x01000000)  returns 0x00 (0000ms, 0662ms total)
T3100 000:809 JLINK_WriteReg(MSP, 0x10000FE0)  returns 0x00 (0000ms, 0662ms total)
T3100 000:809 JLINK_WriteReg(PSP, 0x10000FE0)  returns 0x00 (0000ms, 0662ms total)
T3100 000:809 JLINK_WriteReg(CFBP, 0x00000000)  returns 0x00 (0000ms, 0662ms total)
T3100 000:809 JLINK_SetBPEx(Addr = 0x10000000, Type = 0xFFFFFFF2)  returns 0x00000003 (0001ms, 0663ms total)
T3100 000:810 JLINK_Go() >0x1D8 JTAG> >0x2C8 JTAG> >0x1E8 JTAG> >0x1E8 JTAG> >0x1E8 JTAG> >0x218 JTAG> >0x218 JTAG> (0008ms, 0671ms total)
T3100 000:818 JLINK_IsHalted() >0x170 JTAG>  returns FALSE (0001ms, 0672ms total)
T3100 000:860 JLINK_IsHalted() >0x170 JTAG>  returns FALSE (0001ms, 0672ms total)
T3100 000:863 JLINK_IsHalted() >0x170 JTAG>  returns FALSE (0001ms, 0672ms total)
T3100 000:865 JLINK_IsHalted() >0x170 JTAG>  returns FALSE (0001ms, 0672ms total)
T3100 000:868 JLINK_IsHalted() >0x170 JTAG>  returns FALSE (0001ms, 0672ms total)
T3100 000:871 JLINK_IsHalted() >0x170 JTAG>  returns FALSE (0002ms, 0673ms total)
T3100 000:874 JLINK_IsHalted() >0x170 JTAG>  returns FALSE (0000ms, 0671ms total)
T3100 000:876 JLINK_IsHalted() >0x170 JTAG>  returns FALSE (0002ms, 0673ms total)
T3100 000:879 JLINK_IsHalted() >0x170 JTAG>  returns FALSE (0001ms, 0672ms total)
T3100 000:882 JLINK_IsHalted() >0x170 JTAG>  returns FALSE (0001ms, 0672ms total)
T3100 000:884 JLINK_IsHalted() >0x170 JTAG>  returns FALSE (0001ms, 0672ms total)
T3100 000:887 JLINK_IsHalted() >0x170 JTAG>  returns FALSE (0001ms, 0672ms total)
T3100 000:889 JLINK_IsHalted() >0x170 JTAG>  returns FALSE (0001ms, 0672ms total)
T3100 000:892 JLINK_IsHalted() >0x170 JTAG>  returns FALSE (0001ms, 0672ms total)
T3100 000:894 JLINK_IsHalted() >0x170 JTAG>  returns FALSE (0001ms, 0672ms total)
T3100 000:897 JLINK_IsHalted() >0x170 JTAG>  returns FALSE (0001ms, 0672ms total)
T3100 000:900 JLINK_IsHalted() >0x170 JTAG>  returns FALSE (0001ms, 0672ms total)
T3100 000:903 JLINK_IsHalted() >0x170 JTAG>  returns FALSE (0001ms, 0672ms total)
T3100 000:906 JLINK_IsHalted() >0x170 JTAG>  returns FALSE (0001ms, 0672ms total)
T3100 000:909 JLINK_IsHalted() >0x170 JTAG>  returns FALSE (0001ms, 0672ms total)
T3100 000:912 JLINK_IsHalted() >0x170 JTAG>  returns FALSE (0001ms, 0672ms total)
T3100 000:915 JLINK_IsHalted() >0x170 JTAG>  returns FALSE (0001ms, 0672ms total)
T3100 000:918 JLINK_IsHalted() >0x170 JTAG>  returns FALSE (0001ms, 0672ms total)
T3100 000:921 JLINK_IsHalted() >0x170 JTAG> >0x1598 JTAG>  returns TRUE (0011ms, 0682ms total)
T3100 000:932 JLINK_ReadReg(R15 (PC))  returns 0x10000000 (0000ms, 0671ms total)
T3100 000:932 JLINK_ClrBPEx(BPHandle = 0x00000003)  returns 0x00 (0000ms, 0671ms total)
T3100 000:932 JLINK_ReadReg(R0)  returns 0x00000000 (0000ms, 0671ms total)
T3100 000:933 JLINK_WriteReg(R0, 0x00001000)  returns 0x00 (0000ms, 0671ms total)
T3100 000:933 JLINK_WriteReg(R1, 0x00001000)  returns 0x00 (0000ms, 0671ms total)
T3100 000:933 JLINK_WriteReg(R2, 0x000000FF)  returns 0x00 (0000ms, 0671ms total)
T3100 000:933 JLINK_WriteReg(R3, 0x00000000)  returns 0x00 (0001ms, 0672ms total)
T3100 000:934 JLINK_WriteReg(R4, 0x00000000)  returns 0x00 (0000ms, 0672ms total)
T3100 000:934 JLINK_WriteReg(R5, 0x00000000)  returns 0x00 (0000ms, 0672ms total)
T3100 000:934 JLINK_WriteReg(R6, 0x00000000)  returns 0x00 (0000ms, 0672ms total)
T3100 000:934 JLINK_WriteReg(R7, 0x00000000)  returns 0x00 (0000ms, 0672ms total)
T3100 000:934 JLINK_WriteReg(R8, 0x00000000)  returns 0x00 (0000ms, 0672ms total)
T3100 000:934 JLINK_WriteReg(R9, 0x100001DC)  returns 0x00 (0000ms, 0672ms total)
T3100 000:934 JLINK_WriteReg(R10, 0x00000000)  returns 0x00 (0000ms, 0672ms total)
T3100 000:934 JLINK_WriteReg(R11, 0x00000000)  returns 0x00 (0000ms, 0672ms total)
T3100 000:934 JLINK_WriteReg(R12, 0x00000000)  returns 0x00 (0000ms, 0672ms total)
T3100 000:934 JLINK_WriteReg(R13 (SP), 0x10000FE0)  returns 0x00 (0000ms, 0672ms total)
T3100 000:934 JLINK_WriteReg(R14, 0x10000001)  returns 0x00 (0000ms, 0672ms total)
T3100 000:934 JLINK_WriteReg(R15 (PC), 0x10000020)  returns 0x00 (0000ms, 0672ms total)
T3100 000:934 JLINK_WriteReg(XPSR, 0x01000000)  returns 0x00 (0000ms, 0672ms total)
T3100 000:934 JLINK_WriteReg(MSP, 0x10000FE0)  returns 0x00 (0000ms, 0672ms total)
T3100 000:934 JLINK_WriteReg(PSP, 0x10000FE0)  returns 0x00 (0000ms, 0672ms total)
T3100 000:934 JLINK_WriteReg(CFBP, 0x00000000)  returns 0x00 (0001ms, 0673ms total)
T3100 000:935 JLINK_SetBPEx(Addr = 0x10000000, Type = 0xFFFFFFF2)  returns 0x00000004 (0000ms, 0673ms total)
T3100 000:935 JLINK_Go() >0x1D8 JTAG> >0x2C8 JTAG> >0x1E8 JTAG> >0x1E8 JTAG> >0x1E8 JTAG> >0x1E8 JTAG> >0x1E8 JTAG> >0x1E8 JTAG> >0x218 JTAG> >0x218 JTAG> (0014ms, 0687ms total)
T3100 000:949 JLINK_IsHalted() >0x170 JTAG> >0x1598 JTAG>  returns TRUE (0012ms, 0699ms total)
T3100 000:961 JLINK_ReadReg(R15 (PC))  returns 0x10000000 (0000ms, 0687ms total)
T3100 000:961 JLINK_ClrBPEx(BPHandle = 0x00000004)  returns 0x00 (0000ms, 0687ms total)
T3100 000:961 JLINK_ReadReg(R0)  returns 0x00000001 (0000ms, 0687ms total)
T3100 000:961 JLINK_WriteReg(R0, 0x00001000)  returns 0x00 (0000ms, 0687ms total)
T3100 000:961 JLINK_WriteReg(R1, 0x00001000)  returns 0x00 (0000ms, 0687ms total)
T3100 000:961 JLINK_WriteReg(R2, 0x000000FF)  returns 0x00 (0000ms, 0687ms total)
T3100 000:961 JLINK_WriteReg(R3, 0x00000000)  returns 0x00 (0000ms, 0687ms total)
T3100 000:961 JLINK_WriteReg(R4, 0x00000000)  returns 0x00 (0000ms, 0687ms total)
T3100 000:961 JLINK_WriteReg(R5, 0x00000000)  returns 0x00 (0000ms, 0687ms total)
T3100 000:961 JLINK_WriteReg(R6, 0x00000000)  returns 0x00 (0000ms, 0687ms total)
T3100 000:961 JLINK_WriteReg(R7, 0x00000000)  returns 0x00 (0000ms, 0687ms total)
T3100 000:961 JLINK_WriteReg(R8, 0x00000000)  returns 0x00 (0000ms, 0687ms total)
T3100 000:961 JLINK_WriteReg(R9, 0x100001DC)  returns 0x00 (0000ms, 0687ms total)
T3100 000:961 JLINK_WriteReg(R10, 0x00000000)  returns 0x00 (0001ms, 0688ms total)
T3100 000:962 JLINK_WriteReg(R11, 0x00000000)  returns 0x00 (0000ms, 0688ms total)
T3100 000:962 JLINK_WriteReg(R12, 0x00000000)  returns 0x00 (0000ms, 0688ms total)
T3100 000:962 JLINK_WriteReg(R13 (SP), 0x10000FE0)  returns 0x00 (0000ms, 0688ms total)
T3100 000:962 JLINK_WriteReg(R14, 0x10000001)  returns 0x00 (0000ms, 0688ms total)
T3100 000:962 JLINK_WriteReg(R15 (PC), 0x10000110)  returns 0x00 (0000ms, 0688ms total)
T3100 000:962 JLINK_WriteReg(XPSR, 0x01000000)  returns 0x00 (0000ms, 0688ms total)
T3100 000:962 JLINK_WriteReg(MSP, 0x10000FE0)  returns 0x00 (0000ms, 0688ms total)
T3100 000:962 JLINK_WriteReg(PSP, 0x10000FE0)  returns 0x00 (0000ms, 0688ms total)
T3100 000:962 JLINK_WriteReg(CFBP, 0x00000000)  returns 0x00 (0000ms, 0688ms total)
T3100 000:962 JLINK_SetBPEx(Addr = 0x10000000, Type = 0xFFFFFFF2)  returns 0x00000005 (0000ms, 0688ms total)
T3100 000:962 JLINK_Go() >0x1D8 JTAG> >0x2C8 JTAG> >0x1E8 JTAG> >0x1E8 JTAG> >0x1E8 JTAG> >0x218 JTAG> >0x218 JTAG> (0009ms, 0697ms total)
T3100 000:971 JLINK_IsHalted() >0x170 JTAG>  returns FALSE (0002ms, 0699ms total)
T3100 000:981 JLINK_IsHalted() >0x170 JTAG>  returns FALSE (0001ms, 0698ms total)
T3100 000:983 JLINK_IsHalted() >0x170 JTAG>  returns FALSE (0001ms, 0698ms total)
T3100 000:985 JLINK_IsHalted() >0x170 JTAG>  returns FALSE (0001ms, 0698ms total)
T3100 000:988 JLINK_IsHalted() >0x170 JTAG>  returns FALSE (0001ms, 0698ms total)
T3100 000:991 JLINK_IsHalted() >0x170 JTAG>  returns FALSE (0001ms, 0698ms total)
T3100 000:993 JLINK_IsHalted() >0x170 JTAG>  returns FALSE (0002ms, 0699ms total)
T3100 000:996 JLINK_IsHalted() >0x170 JTAG>  returns FALSE (0001ms, 0698ms total)
T3100 000:999 JLINK_IsHalted() >0x170 JTAG>  returns FALSE (0001ms, 0698ms total)
T3100 001:002 JLINK_IsHalted() >0x170 JTAG>  returns FALSE (0001ms, 0698ms total)
T3100 001:004 JLINK_IsHalted() >0x170 JTAG>  returns FALSE (0001ms, 0698ms total)
T3100 001:007 JLINK_IsHalted() >0x170 JTAG>  returns FALSE (0001ms, 0698ms total)
T3100 001:010 JLINK_IsHalted() >0x170 JTAG>  returns FALSE (0001ms, 0698ms total)
T3100 001:012 JLINK_IsHalted() >0x170 JTAG>  returns FALSE (0001ms, 0698ms total)
T3100 001:015 JLINK_IsHalted() >0x170 JTAG>  returns FALSE (0001ms, 0698ms total)
T3100 001:018 JLINK_IsHalted() >0x170 JTAG>  returns FALSE (0001ms, 0698ms total)
T3100 001:021 JLINK_IsHalted() >0x170 JTAG>  returns FALSE (0001ms, 0698ms total)
T3100 001:023 JLINK_IsHalted() >0x170 JTAG>  returns FALSE (0001ms, 0698ms total)
T3100 001:026 JLINK_IsHalted() >0x170 JTAG>  returns FALSE (0001ms, 0698ms total)
T3100 001:029 JLINK_IsHalted() >0x170 JTAG>  returns FALSE (0001ms, 0698ms total)
T3100 001:032 JLINK_IsHalted() >0x170 JTAG>  returns FALSE (0001ms, 0698ms total)
T3100 001:034 JLINK_IsHalted() >0x170 JTAG>  returns FALSE (0001ms, 0698ms total)
T3100 001:037 JLINK_IsHalted() >0x170 JTAG>  returns FALSE (0001ms, 0698ms total)
T3100 001:039 JLINK_IsHalted() >0x170 JTAG>  returns FALSE (0001ms, 0698ms total)
T3100 001:042 JLINK_IsHalted() >0x170 JTAG>  returns FALSE (0001ms, 0698ms total)
T3100 001:045 JLINK_IsHalted() >0x170 JTAG>  returns FALSE (0001ms, 0698ms total)
T3100 001:048 JLINK_IsHalted() >0x170 JTAG>  returns FALSE (0001ms, 0698ms total)
T3100 001:051 JLINK_IsHalted() >0x170 JTAG>  returns FALSE (0001ms, 0698ms total)
T3100 001:054 JLINK_IsHalted() >0x170 JTAG>  returns FALSE (0001ms, 0698ms total)
T3100 001:057 JLINK_IsHalted() >0x170 JTAG>  returns FALSE (0001ms, 0698ms total)
T3100 001:059 JLINK_IsHalted() >0x170 JTAG>  returns FALSE (0001ms, 0698ms total)
T3100 001:062 JLINK_IsHalted() >0x170 JTAG>  returns FALSE (0001ms, 0698ms total)
T3100 001:066 JLINK_IsHalted() >0x170 JTAG>  returns FALSE (0002ms, 0699ms total)
T3100 001:070 JLINK_IsHalted() >0x170 JTAG>  returns FALSE (0001ms, 0698ms total)
T3100 001:073 JLINK_IsHalted() >0x170 JTAG> >0x1598 JTAG>  returns TRUE (0011ms, 0708ms total)
T3100 001:084 JLINK_ReadReg(R15 (PC))  returns 0x10000000 (0000ms, 0697ms total)
T3100 001:085 JLINK_ClrBPEx(BPHandle = 0x00000005)  returns 0x00 (0000ms, 0697ms total)
T3100 001:085 JLINK_ReadReg(R0)  returns 0x00000000 (0000ms, 0697ms total)
T3100 001:087 JLINK_WriteReg(R0, 0x00002000)  returns 0x00 (0000ms, 0697ms total)
T3100 001:087 JLINK_WriteReg(R1, 0x00001000)  returns 0x00 (0000ms, 0697ms total)
T3100 001:087 JLINK_WriteReg(R2, 0x000000FF)  returns 0x00 (0000ms, 0697ms total)
T3100 001:087 JLINK_WriteReg(R3, 0x00000000)  returns 0x00 (0000ms, 0697ms total)
T3100 001:087 JLINK_WriteReg(R4, 0x00000000)  returns 0x00 (0000ms, 0697ms total)
T3100 001:087 JLINK_WriteReg(R5, 0x00000000)  returns 0x00 (0000ms, 0697ms total)
T3100 001:087 JLINK_WriteReg(R6, 0x00000000)  returns 0x00 (0000ms, 0697ms total)
T3100 001:087 JLINK_WriteReg(R7, 0x00000000)  returns 0x00 (0000ms, 0697ms total)
T3100 001:087 JLINK_WriteReg(R8, 0x00000000)  returns 0x00 (0000ms, 0697ms total)
T3100 001:087 JLINK_WriteReg(R9, 0x100001DC)  returns 0x00 (0000ms, 0697ms total)
T3100 001:087 JLINK_WriteReg(R10, 0x00000000)  returns 0x00 (0001ms, 0698ms total)
T3100 001:088 JLINK_WriteReg(R11, 0x00000000)  returns 0x00 (0000ms, 0698ms total)
T3100 001:088 JLINK_WriteReg(R12, 0x00000000)  returns 0x00 (0000ms, 0698ms total)
T3100 001:088 JLINK_WriteReg(R13 (SP), 0x10000FE0)  returns 0x00 (0000ms, 0698ms total)
T3100 001:088 JLINK_WriteReg(R14, 0x10000001)  returns 0x00 (0000ms, 0698ms total)
T3100 001:088 JLINK_WriteReg(R15 (PC), 0x10000020)  returns 0x00 (0000ms, 0698ms total)
T3100 001:088 JLINK_WriteReg(XPSR, 0x01000000)  returns 0x00 (0000ms, 0698ms total)
T3100 001:088 JLINK_WriteReg(MSP, 0x10000FE0)  returns 0x00 (0000ms, 0698ms total)
T3100 001:088 JLINK_WriteReg(PSP, 0x10000FE0)  returns 0x00 (0000ms, 0698ms total)
T3100 001:088 JLINK_WriteReg(CFBP, 0x00000000)  returns 0x00 (0000ms, 0698ms total)
T3100 001:088 JLINK_SetBPEx(Addr = 0x10000000, Type = 0xFFFFFFF2)  returns 0x00000006 (0000ms, 0698ms total)
T3100 001:088 JLINK_Go() >0x1D8 JTAG> >0x2C8 JTAG> >0x1E8 JTAG> >0x1E8 JTAG> >0x1E8 JTAG> >0x1E8 JTAG> >0x1E8 JTAG> >0x1E8 JTAG> >0x218 JTAG> >0x218 JTAG> (0014ms, 0712ms total)
T3100 001:102 JLINK_IsHalted() >0x170 JTAG> >0x1598 JTAG>  returns TRUE (0011ms, 0723ms total)
T3100 001:113 JLINK_ReadReg(R15 (PC))  returns 0x10000000 (0000ms, 0712ms total)
T3100 001:113 JLINK_ClrBPEx(BPHandle = 0x00000006)  returns 0x00 (0000ms, 0712ms total)
T3100 001:113 JLINK_ReadReg(R0)  returns 0x00000001 (0000ms, 0712ms total)
T3100 001:113 JLINK_WriteReg(R0, 0x00002000)  returns 0x00 (0000ms, 0712ms total)
T3100 001:113 JLINK_WriteReg(R1, 0x00001000)  returns 0x00 (0001ms, 0713ms total)
T3100 001:114 JLINK_WriteReg(R2, 0x000000FF)  returns 0x00 (0000ms, 0713ms total)
T3100 001:114 JLINK_WriteReg(R3, 0x00000000)  returns 0x00 (0000ms, 0713ms total)
T3100 001:114 JLINK_WriteReg(R4, 0x00000000)  returns 0x00 (0000ms, 0713ms total)
T3100 001:114 JLINK_WriteReg(R5, 0x00000000)  returns 0x00 (0000ms, 0713ms total)
T3100 001:114 JLINK_WriteReg(R6, 0x00000000)  returns 0x00 (0000ms, 0713ms total)
T3100 001:114 JLINK_WriteReg(R7, 0x00000000)  returns 0x00 (0000ms, 0713ms total)
T3100 001:114 JLINK_WriteReg(R8, 0x00000000)  returns 0x00 (0000ms, 0713ms total)
T3100 001:114 JLINK_WriteReg(R9, 0x100001DC)  returns 0x00 (0001ms, 0714ms total)
T3100 001:115 JLINK_WriteReg(R10, 0x00000000)  returns 0x00 (0000ms, 0714ms total)
T3100 001:115 JLINK_WriteReg(R11, 0x00000000)  returns 0x00 (0000ms, 0714ms total)
T3100 001:115 JLINK_WriteReg(R12, 0x00000000)  returns 0x00 (0000ms, 0714ms total)
T3100 001:115 JLINK_WriteReg(R13 (SP), 0x10000FE0)  returns 0x00 (0000ms, 0714ms total)
T3100 001:115 JLINK_WriteReg(R14, 0x10000001)  returns 0x00 (0000ms, 0714ms total)
T3100 001:115 JLINK_WriteReg(R15 (PC), 0x10000110)  returns 0x00 (0000ms, 0714ms total)
T3100 001:115 JLINK_WriteReg(XPSR, 0x01000000)  returns 0x00 (0000ms, 0714ms total)
T3100 001:115 JLINK_WriteReg(MSP, 0x10000FE0)  returns 0x00 (0000ms, 0714ms total)
T3100 001:115 JLINK_WriteReg(PSP, 0x10000FE0)  returns 0x00 (0000ms, 0714ms total)
T3100 001:115 JLINK_WriteReg(CFBP, 0x00000000)  returns 0x00 (0000ms, 0714ms total)
T3100 001:115 JLINK_SetBPEx(Addr = 0x10000000, Type = 0xFFFFFFF2)  returns 0x00000007 (0001ms, 0715ms total)
T3100 001:116 JLINK_Go() >0x1D8 JTAG> >0x2C8 JTAG> >0x1E8 JTAG> >0x1E8 JTAG> >0x1E8 JTAG> >0x218 JTAG> >0x218 JTAG> (0011ms, 0726ms total)
T3100 001:127 JLINK_IsHalted() >0x170 JTAG>  returns FALSE (0001ms, 0727ms total)
T3100 001:131 JLINK_IsHalted() >0x170 JTAG>  returns FALSE (0001ms, 0727ms total)
T3100 001:134 JLINK_IsHalted() >0x170 JTAG>  returns FALSE (0001ms, 0727ms total)
T3100 001:137 JLINK_IsHalted() >0x170 JTAG>  returns FALSE (0000ms, 0726ms total)
T3100 001:140 JLINK_IsHalted() >0x170 JTAG>  returns FALSE (0000ms, 0726ms total)
T3100 001:142 JLINK_IsHalted() >0x170 JTAG>  returns FALSE (0002ms, 0728ms total)
T3100 001:145 JLINK_IsHalted() >0x170 JTAG>  returns FALSE (0001ms, 0727ms total)
T3100 001:148 JLINK_IsHalted() >0x170 JTAG>  returns FALSE (0001ms, 0727ms total)
T3100 001:151 JLINK_IsHalted() >0x170 JTAG>  returns FALSE (0001ms, 0727ms total)
T3100 001:154 JLINK_IsHalted() >0x170 JTAG>  returns FALSE (0001ms, 0727ms total)
T3100 001:157 JLINK_IsHalted() >0x170 JTAG>  returns FALSE (0001ms, 0727ms total)
T3100 001:160 JLINK_IsHalted() >0x170 JTAG>  returns FALSE (0001ms, 0727ms total)
T3100 001:162 JLINK_IsHalted() >0x170 JTAG>  returns FALSE (0001ms, 0727ms total)
T3100 001:165 JLINK_IsHalted() >0x170 JTAG>  returns FALSE (0001ms, 0727ms total)
T3100 001:168 JLINK_IsHalted() >0x170 JTAG>  returns FALSE (0001ms, 0727ms total)
T3100 001:173 JLINK_IsHalted() >0x170 JTAG>  returns FALSE (0001ms, 0727ms total)
T3100 001:175 JLINK_IsHalted() >0x170 JTAG>  returns FALSE (0001ms, 0727ms total)
T3100 001:178 JLINK_IsHalted() >0x170 JTAG>  returns FALSE (0002ms, 0728ms total)
T3100 001:181 JLINK_IsHalted() >0x170 JTAG>  returns FALSE (0001ms, 0727ms total)
T3100 001:184 JLINK_IsHalted() >0x170 JTAG>  returns FALSE (0001ms, 0727ms total)
T3100 001:187 JLINK_IsHalted() >0x170 JTAG>  returns FALSE (0001ms, 0727ms total)
T3100 001:190 JLINK_IsHalted() >0x170 JTAG>  returns FALSE (0002ms, 0728ms total)
T3100 001:193 JLINK_IsHalted() >0x170 JTAG>  returns FALSE (0001ms, 0727ms total)
T3100 001:195 JLINK_IsHalted() >0x170 JTAG>  returns FALSE (0001ms, 0727ms total)
T3100 001:199 JLINK_IsHalted() >0x170 JTAG>  returns FALSE (0000ms, 0726ms total)
T3100 001:202 JLINK_IsHalted() >0x170 JTAG>  returns FALSE (0000ms, 0726ms total)
T3100 001:204 JLINK_IsHalted() >0x170 JTAG>  returns FALSE (0001ms, 0727ms total)
T3100 001:207 JLINK_IsHalted() >0x170 JTAG>  returns FALSE (0001ms, 0727ms total)
T3100 001:210 JLINK_IsHalted() >0x170 JTAG>  returns FALSE (0001ms, 0727ms total)
T3100 001:212 JLINK_IsHalted() >0x170 JTAG>  returns FALSE (0001ms, 0727ms total)
T3100 001:215 JLINK_IsHalted() >0x170 JTAG>  returns FALSE (0002ms, 0728ms total)
T3100 001:219 JLINK_IsHalted() >0x170 JTAG>  returns FALSE (0001ms, 0727ms total)
T3100 001:222 JLINK_IsHalted() >0x170 JTAG>  returns FALSE (0001ms, 0727ms total)
T3100 001:225 JLINK_IsHalted() >0x170 JTAG>  returns FALSE (0001ms, 0727ms total)
T3100 001:228 JLINK_IsHalted() >0x170 JTAG> >0x1598 JTAG>  returns TRUE (0012ms, 0738ms total)
T3100 001:240 JLINK_ReadReg(R15 (PC))  returns 0x10000000 (0000ms, 0726ms total)
T3100 001:240 JLINK_ClrBPEx(BPHandle = 0x00000007)  returns 0x00 (0000ms, 0726ms total)
T3100 001:240 JLINK_ReadReg(R0)  returns 0x00000000 (0000ms, 0726ms total)
T3100 001:243 JLINK_WriteReg(R0, 0x00003000)  returns 0x00 (0000ms, 0726ms total)
T3100 001:243 JLINK_WriteReg(R1, 0x00001000)  returns 0x00 (0000ms, 0726ms total)
T3100 001:243 JLINK_WriteReg(R2, 0x000000FF)  returns 0x00 (0000ms, 0726ms total)
T3100 001:243 JLINK_WriteReg(R3, 0x00000000)  returns 0x00 (0000ms, 0726ms total)
T3100 001:243 JLINK_WriteReg(R4, 0x00000000)  returns 0x00 (0000ms, 0726ms total)
T3100 001:243 JLINK_WriteReg(R5, 0x00000000)  returns 0x00 (0000ms, 0726ms total)
T3100 001:243 JLINK_WriteReg(R6, 0x00000000)  returns 0x00 (0000ms, 0726ms total)
T3100 001:243 JLINK_WriteReg(R7, 0x00000000)  returns 0x00 (0001ms, 0727ms total)
T3100 001:244 JLINK_WriteReg(R8, 0x00000000)  returns 0x00 (0000ms, 0727ms total)
T3100 001:244 JLINK_WriteReg(R9, 0x100001DC)  returns 0x00 (0000ms, 0727ms total)
T3100 001:244 JLINK_WriteReg(R10, 0x00000000)  returns 0x00 (0000ms, 0727ms total)
T3100 001:244 JLINK_WriteReg(R11, 0x00000000)  returns 0x00 (0000ms, 0727ms total)
T3100 001:244 JLINK_WriteReg(R12, 0x00000000)  returns 0x00 (0000ms, 0727ms total)
T3100 001:244 JLINK_WriteReg(R13 (SP), 0x10000FE0)  returns 0x00 (0000ms, 0727ms total)
T3100 001:244 JLINK_WriteReg(R14, 0x10000001)  returns 0x00 (0000ms, 0727ms total)
T3100 001:244 JLINK_WriteReg(R15 (PC), 0x10000020)  returns 0x00 (0001ms, 0728ms total)
T3100 001:245 JLINK_WriteReg(XPSR, 0x01000000)  returns 0x00 (0000ms, 0728ms total)
T3100 001:245 JLINK_WriteReg(MSP, 0x10000FE0)  returns 0x00 (0000ms, 0728ms total)
T3100 001:245 JLINK_WriteReg(PSP, 0x10000FE0)  returns 0x00 (0000ms, 0728ms total)
T3100 001:245 JLINK_WriteReg(CFBP, 0x00000000)  returns 0x00 (0000ms, 0728ms total)
T3100 001:245 JLINK_SetBPEx(Addr = 0x10000000, Type = 0xFFFFFFF2)  returns 0x00000008 (0000ms, 0728ms total)
T3100 001:245 JLINK_Go() >0x1D8 JTAG> >0x2C8 JTAG> >0x1E8 JTAG> >0x1E8 JTAG> >0x1E8 JTAG> >0x1E8 JTAG> >0x1E8 JTAG> >0x1E8 JTAG> >0x218 JTAG> >0x218 JTAG> (0014ms, 0742ms total)
T3100 001:259 JLINK_IsHalted() >0x170 JTAG> >0x1598 JTAG>  returns TRUE (0012ms, 0754ms total)
T3100 001:271 JLINK_ReadReg(R15 (PC))  returns 0x10000000 (0000ms, 0742ms total)
T3100 001:271 JLINK_ClrBPEx(BPHandle = 0x00000008)  returns 0x00 (0000ms, 0742ms total)
T3100 001:271 JLINK_ReadReg(R0)  returns 0x00000001 (0000ms, 0742ms total)
T3100 001:271 JLINK_WriteReg(R0, 0x00003000)  returns 0x00 (0000ms, 0742ms total)
T3100 001:271 JLINK_WriteReg(R1, 0x00001000)  returns 0x00 (0001ms, 0743ms total)
T3100 001:272 JLINK_WriteReg(R2, 0x000000FF)  returns 0x00 (0000ms, 0743ms total)
T3100 001:272 JLINK_WriteReg(R3, 0x00000000)  returns 0x00 (0000ms, 0743ms total)
T3100 001:272 JLINK_WriteReg(R4, 0x00000000)  returns 0x00 (0000ms, 0743ms total)
T3100 001:272 JLINK_WriteReg(R5, 0x00000000)  returns 0x00 (0000ms, 0743ms total)
T3100 001:272 JLINK_WriteReg(R6, 0x00000000)  returns 0x00 (0000ms, 0743ms total)
T3100 001:272 JLINK_WriteReg(R7, 0x00000000)  returns 0x00 (0000ms, 0743ms total)
T3100 001:272 JLINK_WriteReg(R8, 0x00000000)  returns 0x00 (0000ms, 0743ms total)
T3100 001:272 JLINK_WriteReg(R9, 0x100001DC)  returns 0x00 (0001ms, 0744ms total)
T3100 001:273 JLINK_WriteReg(R10, 0x00000000)  returns 0x00 (0000ms, 0744ms total)
T3100 001:273 JLINK_WriteReg(R11, 0x00000000)  returns 0x00 (0000ms, 0744ms total)
T3100 001:273 JLINK_WriteReg(R12, 0x00000000)  returns 0x00 (0000ms, 0744ms total)
T3100 001:273 JLINK_WriteReg(R13 (SP), 0x10000FE0)  returns 0x00 (0000ms, 0744ms total)
T3100 001:273 JLINK_WriteReg(R14, 0x10000001)  returns 0x00 (0000ms, 0744ms total)
T3100 001:273 JLINK_WriteReg(R15 (PC), 0x10000110)  returns 0x00 (0000ms, 0744ms total)
T3100 001:273 JLINK_WriteReg(XPSR, 0x01000000)  returns 0x00 (0000ms, 0744ms total)
T3100 001:273 JLINK_WriteReg(MSP, 0x10000FE0)  returns 0x00 (0000ms, 0744ms total)
T3100 001:273 JLINK_WriteReg(PSP, 0x10000FE0)  returns 0x00 (0000ms, 0744ms total)
T3100 001:273 JLINK_WriteReg(CFBP, 0x00000000)  returns 0x00 (0001ms, 0745ms total)
T3100 001:274 JLINK_SetBPEx(Addr = 0x10000000, Type = 0xFFFFFFF2)  returns 0x00000009 (0000ms, 0745ms total)
T3100 001:274 JLINK_Go() >0x1D8 JTAG> >0x2C8 JTAG> >0x1E8 JTAG> >0x1E8 JTAG> >0x1E8 JTAG> >0x218 JTAG> >0x218 JTAG> (0011ms, 0756ms total)
T3100 001:285 JLINK_IsHalted() >0x170 JTAG>  returns FALSE (0001ms, 0757ms total)
T3100 001:291 JLINK_IsHalted() >0x170 JTAG>  returns FALSE (0001ms, 0757ms total)
T3100 001:294 JLINK_IsHalted() >0x170 JTAG>  returns FALSE (0001ms, 0757ms total)
T3100 001:297 JLINK_IsHalted() >0x170 JTAG>  returns FALSE (0001ms, 0757ms total)
T3100 001:300 JLINK_IsHalted() >0x170 JTAG>  returns FALSE (0001ms, 0757ms total)
T3100 001:303 JLINK_IsHalted() >0x170 JTAG>  returns FALSE (0002ms, 0758ms total)
T3100 001:306 JLINK_IsHalted() >0x170 JTAG>  returns FALSE (0001ms, 0757ms total)
T3100 001:309 JLINK_IsHalted() >0x170 JTAG>  returns FALSE (0001ms, 0757ms total)
T3100 001:312 JLINK_IsHalted() >0x170 JTAG>  returns FALSE (0001ms, 0757ms total)
T3100 001:314 JLINK_IsHalted() >0x170 JTAG>  returns FALSE (0001ms, 0757ms total)
T3100 001:317 JLINK_IsHalted() >0x170 JTAG>  returns FALSE (0001ms, 0757ms total)
T3100 001:320 JLINK_IsHalted() >0x170 JTAG>  returns FALSE (0001ms, 0757ms total)
T3100 001:323 JLINK_IsHalted() >0x170 JTAG>  returns FALSE (0001ms, 0757ms total)
T3100 001:326 JLINK_IsHalted() >0x170 JTAG>  returns FALSE (0001ms, 0757ms total)
T3100 001:331 JLINK_IsHalted() >0x170 JTAG>  returns FALSE (0001ms, 0757ms total)
T3100 001:334 JLINK_IsHalted() >0x170 JTAG>  returns FALSE (0001ms, 0757ms total)
T3100 001:337 JLINK_IsHalted() >0x170 JTAG>  returns FALSE (0001ms, 0757ms total)
T3100 001:339 JLINK_IsHalted() >0x170 JTAG>  returns FALSE (0001ms, 0757ms total)
T3100 001:342 JLINK_IsHalted() >0x170 JTAG>  returns FALSE (0001ms, 0757ms total)
T3100 001:345 JLINK_IsHalted() >0x170 JTAG>  returns FALSE (0000ms, 0756ms total)
T3100 001:348 JLINK_IsHalted() >0x170 JTAG>  returns FALSE (0000ms, 0756ms total)
T3100 001:350 JLINK_IsHalted() >0x170 JTAG>  returns FALSE (0001ms, 0757ms total)
T3100 001:353 JLINK_IsHalted() >0x170 JTAG>  returns FALSE (0001ms, 0757ms total)
T3100 001:356 JLINK_IsHalted() >0x170 JTAG>  returns FALSE (0001ms, 0757ms total)
T3100 001:360 JLINK_IsHalted() >0x170 JTAG>  returns FALSE (0001ms, 0757ms total)
T3100 001:363 JLINK_IsHalted() >0x170 JTAG>  returns FALSE (0001ms, 0757ms total)
T3100 001:365 JLINK_IsHalted() >0x170 JTAG>  returns FALSE (0001ms, 0757ms total)
T3100 001:368 JLINK_IsHalted() >0x170 JTAG>  returns FALSE (0001ms, 0757ms total)
T3100 001:371 JLINK_IsHalted() >0x170 JTAG>  returns FALSE (0001ms, 0757ms total)
T3100 001:374 JLINK_IsHalted() >0x170 JTAG>  returns FALSE (0001ms, 0757ms total)
T3100 001:377 JLINK_IsHalted() >0x170 JTAG>  returns FALSE (0001ms, 0757ms total)
T3100 001:379 JLINK_IsHalted() >0x170 JTAG>  returns FALSE (0001ms, 0757ms total)
T3100 001:382 JLINK_IsHalted() >0x170 JTAG>  returns FALSE (0001ms, 0757ms total)
T3100 001:385 JLINK_IsHalted() >0x170 JTAG> >0x1598 JTAG>  returns TRUE (0011ms, 0767ms total)
T3100 001:396 JLINK_ReadReg(R15 (PC))  returns 0x10000000 (0000ms, 0756ms total)
T3100 001:396 JLINK_ClrBPEx(BPHandle = 0x00000009)  returns 0x00 (0000ms, 0756ms total)
T3100 001:396 JLINK_ReadReg(R0)  returns 0x00000000 (0000ms, 0756ms total)
T3100 001:397 JLINK_WriteReg(R0, 0x00004000)  returns 0x00 (0000ms, 0756ms total)
T3100 001:397 JLINK_WriteReg(R1, 0x00001000)  returns 0x00 (0000ms, 0756ms total)
T3100 001:397 JLINK_WriteReg(R2, 0x000000FF)  returns 0x00 (0000ms, 0756ms total)
T3100 001:397 JLINK_WriteReg(R3, 0x00000000)  returns 0x00 (0000ms, 0756ms total)
T3100 001:397 JLINK_WriteReg(R4, 0x00000000)  returns 0x00 (0001ms, 0757ms total)
T3100 001:398 JLINK_WriteReg(R5, 0x00000000)  returns 0x00 (0000ms, 0757ms total)
T3100 001:398 JLINK_WriteReg(R6, 0x00000000)  returns 0x00 (0000ms, 0757ms total)
T3100 001:398 JLINK_WriteReg(R7, 0x00000000)  returns 0x00 (0000ms, 0757ms total)
T3100 001:398 JLINK_WriteReg(R8, 0x00000000)  returns 0x00 (0000ms, 0757ms total)
T3100 001:398 JLINK_WriteReg(R9, 0x100001DC)  returns 0x00 (0000ms, 0757ms total)
T3100 001:398 JLINK_WriteReg(R10, 0x00000000)  returns 0x00 (0000ms, 0757ms total)
T3100 001:398 JLINK_WriteReg(R11, 0x00000000)  returns 0x00 (0000ms, 0757ms total)
T3100 001:398 JLINK_WriteReg(R12, 0x00000000)  returns 0x00 (0000ms, 0757ms total)
T3100 001:398 JLINK_WriteReg(R13 (SP), 0x10000FE0)  returns 0x00 (0000ms, 0757ms total)
T3100 001:398 JLINK_WriteReg(R14, 0x10000001)  returns 0x00 (0000ms, 0757ms total)
T3100 001:398 JLINK_WriteReg(R15 (PC), 0x10000020)  returns 0x00 (0000ms, 0757ms total)
T3100 001:398 JLINK_WriteReg(XPSR, 0x01000000)  returns 0x00 (0000ms, 0757ms total)
T3100 001:398 JLINK_WriteReg(MSP, 0x10000FE0)  returns 0x00 (0000ms, 0757ms total)
T3100 001:398 JLINK_WriteReg(PSP, 0x10000FE0)  returns 0x00 (0000ms, 0757ms total)
T3100 001:398 JLINK_WriteReg(CFBP, 0x00000000)  returns 0x00 (0000ms, 0757ms total)
T3100 001:398 JLINK_SetBPEx(Addr = 0x10000000, Type = 0xFFFFFFF2)  returns 0x0000000A (0000ms, 0757ms total)
T3100 001:398 JLINK_Go() >0x1D8 JTAG> >0x2C8 JTAG> >0x1E8 JTAG> >0x1E8 JTAG> >0x1E8 JTAG> >0x1E8 JTAG> >0x1E8 JTAG> >0x1E8 JTAG> >0x218 JTAG> >0x218 JTAG> (0014ms, 0771ms total)
T3100 001:412 JLINK_IsHalted() >0x170 JTAG> >0x1598 JTAG>  returns TRUE (0012ms, 0783ms total)
T3100 001:424 JLINK_ReadReg(R15 (PC))  returns 0x10000000 (0000ms, 0771ms total)
T3100 001:424 JLINK_ClrBPEx(BPHandle = 0x0000000A)  returns 0x00 (0000ms, 0771ms total)
T3100 001:424 JLINK_ReadReg(R0)  returns 0x00000001 (0000ms, 0771ms total)
T3100 001:424 JLINK_WriteReg(R0, 0x00004000)  returns 0x00 (0000ms, 0771ms total)
T3100 001:424 JLINK_WriteReg(R1, 0x00001000)  returns 0x00 (0000ms, 0771ms total)
T3100 001:424 JLINK_WriteReg(R2, 0x000000FF)  returns 0x00 (0000ms, 0771ms total)
T3100 001:424 JLINK_WriteReg(R3, 0x00000000)  returns 0x00 (0000ms, 0771ms total)
T3100 001:424 JLINK_WriteReg(R4, 0x00000000)  returns 0x00 (0000ms, 0771ms total)
T3100 001:424 JLINK_WriteReg(R5, 0x00000000)  returns 0x00 (0000ms, 0771ms total)
T3100 001:424 JLINK_WriteReg(R6, 0x00000000)  returns 0x00 (0000ms, 0771ms total)
T3100 001:424 JLINK_WriteReg(R7, 0x00000000)  returns 0x00 (0000ms, 0771ms total)
T3100 001:424 JLINK_WriteReg(R8, 0x00000000)  returns 0x00 (0000ms, 0771ms total)
T3100 001:424 JLINK_WriteReg(R9, 0x100001DC)  returns 0x00 (0000ms, 0771ms total)
T3100 001:424 JLINK_WriteReg(R10, 0x00000000)  returns 0x00 (0000ms, 0771ms total)
T3100 001:424 JLINK_WriteReg(R11, 0x00000000)  returns 0x00 (0000ms, 0771ms total)
T3100 001:425 JLINK_WriteReg(R12, 0x00000000)  returns 0x00 (0000ms, 0771ms total)
T3100 001:425 JLINK_WriteReg(R13 (SP), 0x10000FE0)  returns 0x00 (0000ms, 0771ms total)
T3100 001:425 JLINK_WriteReg(R14, 0x10000001)  returns 0x00 (0000ms, 0771ms total)
T3100 001:425 JLINK_WriteReg(R15 (PC), 0x10000110)  returns 0x00 (0000ms, 0771ms total)
T3100 001:425 JLINK_WriteReg(XPSR, 0x01000000)  returns 0x00 (0000ms, 0771ms total)
T3100 001:425 JLINK_WriteReg(MSP, 0x10000FE0)  returns 0x00 (0000ms, 0771ms total)
T3100 001:425 JLINK_WriteReg(PSP, 0x10000FE0)  returns 0x00 (0000ms, 0771ms total)
T3100 001:425 JLINK_WriteReg(CFBP, 0x00000000)  returns 0x00 (0000ms, 0771ms total)
T3100 001:425 JLINK_SetBPEx(Addr = 0x10000000, Type = 0xFFFFFFF2)  returns 0x0000000B (0000ms, 0771ms total)
T3100 001:425 JLINK_Go() >0x1D8 JTAG> >0x2C8 JTAG> >0x1E8 JTAG> >0x1E8 JTAG> >0x1E8 JTAG> >0x218 JTAG> >0x218 JTAG> (0009ms, 0780ms total)
T3100 001:434 JLINK_IsHalted() >0x170 JTAG>  returns FALSE (0001ms, 0781ms total)
T3100 001:438 JLINK_IsHalted() >0x170 JTAG>  returns FALSE (0001ms, 0781ms total)
T3100 001:441 JLINK_IsHalted() >0x170 JTAG>  returns FALSE (0001ms, 0781ms total)
T3100 001:443 JLINK_IsHalted() >0x170 JTAG>  returns FALSE (0001ms, 0781ms total)
T3100 001:446 JLINK_IsHalted() >0x170 JTAG>  returns FALSE (0001ms, 0781ms total)
T3100 001:448 JLINK_IsHalted() >0x170 JTAG>  returns FALSE (0001ms, 0781ms total)
T3100 001:451 JLINK_IsHalted() >0x170 JTAG>  returns FALSE (0001ms, 0781ms total)
T3100 001:454 JLINK_IsHalted() >0x170 JTAG>  returns FALSE (0001ms, 0781ms total)
T3100 001:457 JLINK_IsHalted() >0x170 JTAG>  returns FALSE (0001ms, 0781ms total)
T3100 001:459 JLINK_IsHalted() >0x170 JTAG>  returns FALSE (0001ms, 0781ms total)
T3100 001:462 JLINK_IsHalted() >0x170 JTAG>  returns FALSE (0001ms, 0781ms total)
T3100 001:465 JLINK_IsHalted() >0x170 JTAG>  returns FALSE (0000ms, 0780ms total)
T3100 001:468 JLINK_IsHalted() >0x170 JTAG>  returns FALSE (0001ms, 0781ms total)
T3100 001:471 JLINK_IsHalted() >0x170 JTAG>  returns FALSE (0001ms, 0781ms total)
T3100 001:473 JLINK_IsHalted() >0x170 JTAG>  returns FALSE (0001ms, 0781ms total)
T3100 001:476 JLINK_IsHalted() >0x170 JTAG>  returns FALSE (0001ms, 0781ms total)
T3100 001:479 JLINK_IsHalted() >0x170 JTAG>  returns FALSE (0001ms, 0781ms total)
T3100 001:482 JLINK_IsHalted() >0x170 JTAG>  returns FALSE (0001ms, 0781ms total)
T3100 001:484 JLINK_IsHalted() >0x170 JTAG>  returns FALSE (0001ms, 0781ms total)
T3100 001:487 JLINK_IsHalted() >0x170 JTAG>  returns FALSE (0001ms, 0781ms total)
T3100 001:490 JLINK_IsHalted() >0x170 JTAG>  returns FALSE (0001ms, 0781ms total)
T3100 001:493 JLINK_IsHalted() >0x170 JTAG>  returns FALSE (0001ms, 0781ms total)
T3100 001:495 JLINK_IsHalted() >0x170 JTAG>  returns FALSE (0001ms, 0781ms total)
T3100 001:498 JLINK_IsHalted() >0x170 JTAG>  returns FALSE (0001ms, 0781ms total)
T3100 001:503 JLINK_IsHalted() >0x170 JTAG>  returns FALSE (0001ms, 0781ms total)
T3100 001:505 JLINK_IsHalted() >0x170 JTAG>  returns FALSE (0001ms, 0781ms total)
T3100 001:508 JLINK_IsHalted() >0x170 JTAG>  returns FALSE (0001ms, 0781ms total)
T3100 001:511 JLINK_IsHalted() >0x170 JTAG>  returns FALSE (0001ms, 0781ms total)
T3100 001:513 JLINK_IsHalted() >0x170 JTAG>  returns FALSE (0001ms, 0781ms total)
T3100 001:516 JLINK_IsHalted() >0x170 JTAG>  returns FALSE (0001ms, 0781ms total)
T3100 001:519 JLINK_IsHalted() >0x170 JTAG>  returns FALSE (0001ms, 0781ms total)
T3100 001:522 JLINK_IsHalted() >0x170 JTAG>  returns FALSE (0001ms, 0781ms total)
T3100 001:525 JLINK_IsHalted() >0x170 JTAG>  returns FALSE (0001ms, 0781ms total)
T3100 001:528 JLINK_IsHalted() >0x170 JTAG>  returns FALSE (0001ms, 0781ms total)
T3100 001:531 JLINK_IsHalted() >0x170 JTAG>  returns FALSE (0001ms, 0781ms total)
T3100 001:534 JLINK_IsHalted() >0x170 JTAG> >0x1598 JTAG>  returns TRUE (0011ms, 0791ms total)
T3100 001:545 JLINK_ReadReg(R15 (PC))  returns 0x10000000 (0000ms, 0780ms total)
T3100 001:545 JLINK_ClrBPEx(BPHandle = 0x0000000B)  returns 0x00 (0000ms, 0780ms total)
T3100 001:545 JLINK_ReadReg(R0)  returns 0x00000000 (0001ms, 0781ms total)
T3100 001:547 JLINK_WriteReg(R0, 0x00000001)  returns 0x00 (0000ms, 0781ms total)
T3100 001:547 JLINK_WriteReg(R1, 0x00001000)  returns 0x00 (0000ms, 0781ms total)
T3100 001:547 JLINK_WriteReg(R2, 0x000000FF)  returns 0x00 (0000ms, 0781ms total)
T3100 001:547 JLINK_WriteReg(R3, 0x00000000)  returns 0x00 (0000ms, 0781ms total)
T3100 001:548 JLINK_WriteReg(R4, 0x00000000)  returns 0x00 (0000ms, 0782ms total)
T3100 001:548 JLINK_WriteReg(R5, 0x00000000)  returns 0x00 (0000ms, 0782ms total)
T3100 001:548 JLINK_WriteReg(R6, 0x00000000)  returns 0x00 (0000ms, 0782ms total)
T3100 001:548 JLINK_WriteReg(R7, 0x00000000)  returns 0x00 (0000ms, 0782ms total)
T3100 001:548 JLINK_WriteReg(R8, 0x00000000)  returns 0x00 (0000ms, 0782ms total)
T3100 001:548 JLINK_WriteReg(R9, 0x100001DC)  returns 0x00 (0000ms, 0782ms total)
T3100 001:548 JLINK_WriteReg(R10, 0x00000000)  returns 0x00 (0000ms, 0782ms total)
T3100 001:548 JLINK_WriteReg(R11, 0x00000000)  returns 0x00 (0000ms, 0782ms total)
T3100 001:548 JLINK_WriteReg(R12, 0x00000000)  returns 0x00 (0000ms, 0782ms total)
T3100 001:548 JLINK_WriteReg(R13 (SP), 0x10000FE0)  returns 0x00 (0000ms, 0782ms total)
T3100 001:548 JLINK_WriteReg(R14, 0x10000001)  returns 0x00 (0000ms, 0782ms total)
T3100 001:548 JLINK_WriteReg(R15 (PC), 0x100000CC)  returns 0x00 (0001ms, 0783ms total)
T3100 001:549 JLINK_WriteReg(XPSR, 0x01000000)  returns 0x00 (0000ms, 0783ms total)
T3100 001:549 JLINK_WriteReg(MSP, 0x10000FE0)  returns 0x00 (0000ms, 0783ms total)
T3100 001:549 JLINK_WriteReg(PSP, 0x10000FE0)  returns 0x00 (0000ms, 0783ms total)
T3100 001:549 JLINK_WriteReg(CFBP, 0x00000000)  returns 0x00 (0000ms, 0783ms total)
T3100 001:549 JLINK_SetBPEx(Addr = 0x10000000, Type = 0xFFFFFFF2)  returns 0x0000000C (0000ms, 0783ms total)
T3100 001:549 JLINK_Go() >0x1D8 JTAG> >0x2C8 JTAG> >0x1E8 JTAG> >0x1E8 JTAG> >0x1E8 JTAG> >0x1E8 JTAG> >0x1E8 JTAG> >0x1E8 JTAG> >0x218 JTAG> >0x218 JTAG> (0014ms, 0797ms total)
T3100 001:563 JLINK_IsHalted() >0x170 JTAG> >0x1598 JTAG>  returns TRUE (0012ms, 0809ms total)
T3100 001:575 JLINK_ReadReg(R15 (PC))  returns 0x10000000 (0000ms, 0797ms total)
T3100 001:575 JLINK_ClrBPEx(BPHandle = 0x0000000C)  returns 0x00 (0000ms, 0797ms total)
T3100 001:575 JLINK_ReadReg(R0)  returns 0x00000000 (0000ms, 0797ms total)
T3100 001:641 JLINK_WriteMem(0x10000000, 0x01E4 Bytes, ...) - Data: 00 BE 0A E0 0D 78 2D 06 68 40 08 24 40 00 00 D3 ... >0x17D8 JTAG>  returns 0x1E4 (0011ms, 0808ms total)
T3100 001:652 JLINK_WriteReg(R0, 0x00000000)  returns 0x00 (0001ms, 0809ms total)
T3100 001:653 JLINK_WriteReg(R1, 0x00B71B00)  returns 0x00 (0000ms, 0809ms total)
T3100 001:653 JLINK_WriteReg(R2, 0x00000002)  returns 0x00 (0000ms, 0809ms total)
T3100 001:653 JLINK_WriteReg(R3, 0x00000000)  returns 0x00 (0000ms, 0809ms total)
T3100 001:653 JLINK_WriteReg(R4, 0x00000000)  returns 0x00 (0000ms, 0809ms total)
T3100 001:653 JLINK_WriteReg(R5, 0x00000000)  returns 0x00 (0000ms, 0809ms total)
T3100 001:653 JLINK_WriteReg(R6, 0x00000000)  returns 0x00 (0000ms, 0809ms total)
T3100 001:653 JLINK_WriteReg(R7, 0x00000000)  returns 0x00 (0000ms, 0809ms total)
T3100 001:653 JLINK_WriteReg(R8, 0x00000000)  returns 0x00 (0000ms, 0809ms total)
T3100 001:653 JLINK_WriteReg(R9, 0x100001DC)  returns 0x00 (0000ms, 0809ms total)
T3100 001:653 JLINK_WriteReg(R10, 0x00000000)  returns 0x00 (0000ms, 0809ms total)
T3100 001:653 JLINK_WriteReg(R11, 0x00000000)  returns 0x00 (0001ms, 0810ms total)
T3100 001:654 JLINK_WriteReg(R12, 0x00000000)  returns 0x00 (0000ms, 0810ms total)
T3100 001:654 JLINK_WriteReg(R13 (SP), 0x10000FE0)  returns 0x00 (0000ms, 0810ms total)
T3100 001:654 JLINK_WriteReg(R14, 0x10000001)  returns 0x00 (0000ms, 0810ms total)
T3100 001:654 JLINK_WriteReg(R15 (PC), 0x10000044)  returns 0x00 (0000ms, 0810ms total)
T3100 001:654 JLINK_WriteReg(XPSR, 0x01000000)  returns 0x00 (0000ms, 0810ms total)
T3100 001:654 JLINK_WriteReg(MSP, 0x10000FE0)  returns 0x00 (0000ms, 0810ms total)
T3100 001:654 JLINK_WriteReg(PSP, 0x10000FE0)  returns 0x00 (0000ms, 0810ms total)
T3100 001:654 JLINK_WriteReg(CFBP, 0x00000000)  returns 0x00 (0001ms, 0811ms total)
T3100 001:655 JLINK_SetBPEx(Addr = 0x10000000, Type = 0xFFFFFFF2)  returns 0x0000000D (0000ms, 0811ms total)
T3100 001:655 JLINK_Go() >0x1D8 JTAG> >0x2C8 JTAG> >0x1E8 JTAG> >0x1E8 JTAG> >0x1E8 JTAG> >0x218 JTAG> >0x218 JTAG> (0010ms, 0821ms total)
T3100 001:665 JLINK_IsHalted() >0x170 JTAG> >0x1598 JTAG>  returns TRUE (0012ms, 0833ms total)
T3100 001:677 JLINK_ReadReg(R15 (PC))  returns 0x10000000 (0000ms, 0821ms total)
T3100 001:677 JLINK_ClrBPEx(BPHandle = 0x0000000D)  returns 0x00 (0000ms, 0821ms total)
